T1960 4809:809 SEGGER J-Link V6.30h Log File (0001ms, 6725ms total)
T1960 4809:809 DLL Compiled: Mar 16 2018 18:02:51 (0001ms, 6725ms total)
T1960 4809:809 Logging started @ 2018-06-05 23:47 (0001ms, 6725ms total)
T1960 4809:810 JLINK_SetWarnOutHandler(...) (0000ms, 6725ms total)
T1960 4809:810 JLINK_OpenEx(...)
Firmware: J-Link V9 compiled Mar  2 2018 17:07:57
Hardware: V9.30
S/N: 59304865
Feature(s): RDI, GDB, FlashDL, FlashBP, JFlash
TELNET listener socket opened on port 19021WEBSRV 
Starting webserver (0113ms, 6838ms total)
T1960 4809:810 WEBSRV Webserver running on local port 19080 (0114ms, 6839ms total)
T1960 4809:810   returns O.K. (0114ms, 6839ms total)
T1960 4809:924 JLINK_GetEmuCaps()  returns 0xB9FF7BBF (0000ms, 6839ms total)
T1960 4809:924 JLINK_TIF_GetAvailable(...) (0000ms, 6839ms total)
T1960 4809:924 JLINK_SetErrorOutHandler(...) (0000ms, 6839ms total)
T1960 4809:924 JLINK_ExecCommand("ProjectFile = "G:\ÑÛ¾µ\work\glass\codes\Project\RVMDK£¨uv4£©\JLinkSettings.ini"", ...).   returns 0x00 (0002ms, 6841ms total)
T1960 4809:929 JLINK_ExecCommand("Device = STM32F103ZE", ...). Device "STM32F103ZE" selected.  returns 0x00 (0004ms, 6845ms total)
T1960 4809:933 JLINK_ExecCommand("DisableConnectionTimeout", ...).   returns 0x01 (0000ms, 6845ms total)
T1960 4809:933 JLINK_GetHardwareVersion()  returns 0x16B48 (0000ms, 6845ms total)
T1960 4809:933 JLINK_GetDLLVersion()  returns 63008 (0000ms, 6845ms total)
T1960 4809:933 JLINK_GetFirmwareString(...) (0000ms, 6845ms total)
T1960 4809:940 JLINK_GetDLLVersion()  returns 63008 (0000ms, 6845ms total)
T1960 4809:940 JLINK_GetCompileDateTime() (0000ms, 6845ms total)
T1960 4809:942 JLINK_GetFirmwareString(...) (0000ms, 6845ms total)
T1960 4809:944 JLINK_GetHardwareVersion()  returns 0x16B48 (0000ms, 6845ms total)
T1960 4809:951 JLINK_TIF_Select(JLINKARM_TIF_JTAG)  returns 0x00 (0001ms, 6846ms total)
T1960 4809:952 JLINK_SetSpeed(5000) (0000ms, 6846ms total)
T1960 4809:952 JLINK_GetIdData(...) >0x2F8 JTAG>TotalIRLen = 9, IRPrint = 0x0011 >0x30 JTAG> >0x50 JTAG>JTAG chain detection found 2 devices: #0 Id: 0x3BA00477, IRLen: 04, CoreSight JTAG-DP #1 Id: 0x06414041, IRLen: 05, STM32 Boundary Scan >0x40 JTAG> >0x40 JTAG> >0x40 JTAG> >0x30 JTAG> >0x40 JTAG> >0x40 JTAG> >0x40 JTAG> >0x40 JTAG> >0x40 JTAG> >0x40 JTAG> >0x40 JTAG> >0x40 JTAG> >0x40 JTAG> >0x40 JTAG> >0x40 JTAG> >0x40 JTAG> >0x40 JTAG> >0x40 JTAG> >0x40 JTAG> >0x40 JTAG> >0x40 JTAG> >0x40 JTAG>
 >0x40 JTAG> >0x40 JTAG> >0x40 JTAG> >0x40 JTAG> >0x40 JTAG> >0x2F8 JTAG>TotalIRLen = 9, IRPrint = 0x0011 >0x30 JTAG> >0x50 JTAG>JTAG chain detection found 2 devices: #0 Id: 0x3BA00477, IRLen: 04, CoreSight JTAG-DP #1 Id: 0x06414041, IRLen: 05, STM32 Boundary ScanScanning AP map to find all available APs >0x80 JTAG> >0x50 JTAG> >0x40 JTAG> >0x40 JTAG> >0x50 JTAG> >0x40 JTAG>AP[1]: Stopped AP scan as end of AP map has been reachedAP[0]: AHB-AP (IDR: 0x14770011)
Iterating through AP map to find AHB-AP to use >0x80 JTAG> >0x50 JTAG> >0x50 JTAG> >0x80 JTAG> >0x40 JTAG> >0x30 JTAG> >0x40 JTAG> >0x40 JTAG>AP[0]: Core foundAP[0]: AHB-AP ROM base: 0xE00FF000 >0x40 JTAG> >0x40 JTAG> >0x30 JTAG> >0x40 JTAG> >0x40 JTAG>CPUID register: 0x411FC231. Implementer code: 0x41 (ARM)Found Cortex-M3 r1p1, Little endian. -- CPU_ReadMem(4 bytes @ 0xE000EDF0) -- CPU_WriteMem(4 bytes @ 0xE000EDF0) -- CPU_ReadMem(4 bytes @ 0xE0002000)FPUnit: 6 code (BP) slots and 2 literal slots
 -- CPU_ReadMem(4 bytes @ 0xE000EDFC) -- CPU_WriteMem(4 bytes @ 0xE000EDFC) -- CPU_ReadMem(4 bytes @ 0xE0001000) -- CPU_WriteMem(4 bytes @ 0xE0001000) -- CPU_ReadMem(4 bytes @ 0xE000ED88) -- CPU_WriteMem(4 bytes @ 0xE000ED88) -- CPU_ReadMem(4 bytes @ 0xE000ED88) -- CPU_WriteMem(4 bytes @ 0xE000ED88)CoreSight components:ROMTbl[0] @ E00FF000 -- CPU_ReadMem(16 bytes @ 0xE00FF000) -- CPU_ReadMem(16 bytes @ 0xE000EFF0) -- CPU_ReadMem(16 bytes @ 0xE000EFE0)
ROMTbl[0][0]: E000E000, CID: B105E00D, PID: 001BB000 SCS -- CPU_ReadMem(16 bytes @ 0xE0001FF0) -- CPU_ReadMem(16 bytes @ 0xE0001FE0)ROMTbl[0][1]: E0001000, CID: B105E00D, PID: 001BB002 DWT -- CPU_ReadMem(16 bytes @ 0xE0002FF0) -- CPU_ReadMem(16 bytes @ 0xE0002FE0)ROMTbl[0][2]: E0002000, CID: B105E00D, PID: 000BB003 FPB -- CPU_ReadMem(16 bytes @ 0xE0000FF0) -- CPU_ReadMem(16 bytes @ 0xE0000FE0)ROMTbl[0][3]: E0000000, CID: B105E00D, PID: 001BB001 ITM -- CPU_ReadMem(16 bytes @ 0xE00FF010)
 -- CPU_ReadMem(16 bytes @ 0xE0040FF0) -- CPU_ReadMem(16 bytes @ 0xE0040FE0)ROMTbl[0][4]: E0040000, CID: B105900D, PID: 001BB923 TPIU-Lite -- CPU_ReadMem(16 bytes @ 0xE0041FF0) -- CPU_ReadMem(16 bytes @ 0xE0041FE0)ROMTbl[0][5]: E0041000, CID: B105900D, PID: 101BB924 ETM-M3 ScanLen=9 NumDevices=2 aId[0]=0x3BA00477 aIrRead[0]=0 aScanLen[0]=0 aScanRead[0]=0 (0095ms, 6941ms total)
T1960 4810:047 JLINK_JTAG_GetDeviceID(DeviceIndex = 0)  returns 0x3BA00477 (0000ms, 6941ms total)
T1960 4810:047 JLINK_JTAG_GetDeviceInfo(DeviceIndex = 0)  returns 0x00 (0000ms, 6941ms total)
T1960 4810:047 JLINK_JTAG_GetDeviceID(DeviceIndex = 1)  returns 0x6414041 (0000ms, 6941ms total)
T1960 4810:047 JLINK_JTAG_GetDeviceInfo(DeviceIndex = 1)  returns 0x00 (0000ms, 6941ms total)
T1960 4810:047 JLINK_GetDLLVersion()  returns 63008 (0000ms, 6941ms total)
T1960 4810:047 JLINK_CORE_GetFound()  returns 0x30000FF (0000ms, 6941ms total)
T1960 4810:047 JLINK_GetDebugInfo(0x100 = JLINKARM_ROM_TABLE_ADDR_INDEX) -- Value=0xE00FF000  returns 0x00 (0000ms, 6941ms total)
T1960 4810:050 JLINK_GetDebugInfo(0x100 = JLINKARM_ROM_TABLE_ADDR_INDEX) -- Value=0xE00FF000  returns 0x00 (0000ms, 6941ms total)
T1960 4810:050 JLINK_GetDebugInfo(0x101 = JLINKARM_DEBUG_INFO_ETM_ADDR_INDEX) -- Value=0xE0041000  returns 0x00 (0000ms, 6941ms total)
T1960 4810:050 JLINK_ReadMemEx(0xE0041FD0, 0x0020 Bytes, ..., Flags = 0x02000004) -- CPU_ReadMem(32 bytes @ 0xE0041FD0) - Data: 04 00 00 00 00 00 00 00 00 00 00 00 00 00 00 00 ...  returns 0x20 (0001ms, 6942ms total)
T1960 4810:051 JLINK_GetDebugInfo(0x102 = JLINKARM_DEBUG_INFO_MTB_ADDR_INDEX) -- Value=0x00000000  returns 0x00 (0000ms, 6942ms total)
T1960 4810:051 JLINK_GetDebugInfo(0x103 = JLINKARM_DEBUG_INFO_TPIU_ADDR_INDEX) -- Value=0xE0040000  returns 0x00 (0000ms, 6942ms total)
T1960 4810:051 JLINK_GetDebugInfo(0x104 = JLINKARM_DEBUG_INFO_ITM_ADDR_INDEX) -- Value=0xE0000000  returns 0x00 (0000ms, 6942ms total)
T1960 4810:051 JLINK_GetDebugInfo(0x105 = JLINKARM_DEBUG_INFO_DWT_ADDR_INDEX) -- Value=0xE0001000  returns 0x00 (0000ms, 6942ms total)
T1960 4810:051 JLINK_GetDebugInfo(0x106 = JLINKARM_DEBUG_INFO_FPB_ADDR_INDEX) -- Value=0xE0002000  returns 0x00 (0000ms, 6942ms total)
T1960 4810:051 JLINK_GetDebugInfo(0x107 = JLINKARM_DEBUG_INFO_NVIC_ADDR_INDEX) -- Value=0xE000E000  returns 0x00 (0000ms, 6942ms total)
T1960 4810:051 JLINK_GetDebugInfo(0x10C = JLINKARM_DEBUG_INFO_DBG_ADDR_INDEX) -- Value=0xE000EDF0  returns 0x00 (0000ms, 6942ms total)
T1960 4810:051 JLINK_GetDebugInfo(0x01 = Unknown) -- Value=0x00000000  returns 0x00 (0000ms, 6942ms total)
T1960 4810:051 JLINK_ReadMemU32(0xE000ED00, 0x0001 Items, ...) -- CPU_ReadMem(4 bytes @ 0xE000ED00) - Data: 31 C2 1F 41  returns 0x01 (0000ms, 6942ms total)
T1960 4810:051 JLINK_GetDebugInfo(0x10F = JLINKARM_DEBUG_INFO_HAS_CORTEX_M_SECURITY_EXT_INDEX) -- Value=0x00000000  returns 0x00 (0000ms, 6942ms total)
T1960 4810:051 JLINK_SetResetType(JLINKARM_CM3_RESET_TYPE_NORMAL)  returns JLINKARM_CM3_RESET_TYPE_NORMAL (0000ms, 6942ms total)
T1960 4810:051 JLINK_Reset() -- CPU is running -- CPU_WriteMem(4 bytes @ 0xE000EDF0) -- CPU is running -- CPU_WriteMem(4 bytes @ 0xE000EDFC)Reset: Halt core after reset via DEMCR.VC_CORERESET.Reset: Reset device via AIRCR.SYSRESETREQ. -- CPU is running -- CPU_WriteMem(4 bytes @ 0xE000ED0C) -- CPU_ReadMem(4 bytes @ 0xE000EDF0) -- CPU_ReadMem(4 bytes @ 0xE000EDF0) -- CPU is running -- CPU_WriteMem(4 bytes @ 0xE000EDF0) -- CPU is running -- CPU_WriteMem(4 bytes @ 0xE000EDFC)
 -- CPU_ReadMem(4 bytes @ 0xE000EDF0) -- CPU_WriteMem(4 bytes @ 0xE000EDFC) -- CPU_WriteMem(4 bytes @ 0xE0001028) -- CPU_WriteMem(4 bytes @ 0xE0001038) -- CPU_WriteMem(4 bytes @ 0xE0001048) -- CPU_WriteMem(4 bytes @ 0xE0001058) -- CPU_WriteMem(4 bytes @ 0xE0002000) -- CPU_ReadMem(4 bytes @ 0xE000EDFC) -- CPU_ReadMem(4 bytes @ 0xE0001000) (0073ms, 7015ms total)
T1960 4810:124 JLINK_Halt()  returns 0x00 (0000ms, 7015ms total)
T1960 4810:124 JLINK_ReadMemU32(0xE000EDF0, 0x0001 Items, ...) -- CPU_ReadMem(4 bytes @ 0xE000EDF0) - Data: 03 00 03 00  returns 0x01 (0000ms, 7015ms total)
T1960 4810:124 JLINK_WriteU32(0xE000EDF0, 0xA05F0003) -- CPU_WriteMem(4 bytes @ 0xE000EDF0)  returns 0x00 (0000ms, 7015ms total)
T1960 4810:124 JLINK_WriteU32(0xE000EDFC, 0x01000000) -- CPU_WriteMem(4 bytes @ 0xE000EDFC)  returns 0x00 (0001ms, 7016ms total)
T1960 4810:132 JLINK_GetHWStatus(...)  returns 0x00 (0000ms, 7016ms total)
T1960 4810:139 JLINK_GetNumBPUnits(Type = 0xFFFFFF00)  returns 0x06 (0000ms, 7016ms total)
T1960 4810:139 JLINK_GetNumBPUnits(Type = 0xF0)  returns 0x2000 (0000ms, 7016ms total)
T1960 4810:139 JLINK_GetNumWPUnits()  returns 0x04 (0000ms, 7016ms total)
T1960 4810:144 JLINK_GetSpeed()  returns 0x1388 (0000ms, 7016ms total)
T1960 4810:148 JLINK_ReadMemU32(0xE000E004, 0x0001 Items, ...) -- CPU_ReadMem(4 bytes @ 0xE000E004) - Data: 01 00 00 00  returns 0x01 (0000ms, 7016ms total)
T1960 4810:148 JLINK_ReadMemU32(0xE000E004, 0x0001 Items, ...) -- CPU_ReadMem(4 bytes @ 0xE000E004) - Data: 01 00 00 00  returns 0x01 (0001ms, 7017ms total)
T1960 4810:149 JLINK_WriteMemEx(0xE0001000, 0x001C Bytes, ..., Flags = 0x02000004) - Data: 01 00 00 00 00 00 00 00 00 00 00 00 00 00 00 00 ... -- CPU_WriteMem(28 bytes @ 0xE0001000)  returns 0x1C (0000ms, 7017ms total)
T1960 4810:149 JLINK_Halt()  returns 0x00 (0000ms, 7017ms total)
T1960 4810:149 JLINK_IsHalted()  returns TRUE (0000ms, 7017ms total)
T1960 4810:152 JLINK_WriteMem(0x20000000, 0x0164 Bytes, ...) - Data: 00 BE 0A E0 0D 78 2D 06 68 40 08 24 40 00 00 D3 ... -- CPU_WriteMem(356 bytes @ 0x20000000)  returns 0x164 (0002ms, 7019ms total)
T1960 4810:154 JLINK_WriteReg(R0, 0x08000000)  returns 0x00 (0001ms, 7020ms total)
T1960 4810:155 JLINK_WriteReg(R1, 0x00B71B00)  returns 0x00 (0000ms, 7020ms total)
T1960 4810:155 JLINK_WriteReg(R2, 0x00000001)  returns 0x00 (0000ms, 7020ms total)
T1960 4810:155 JLINK_WriteReg(R3, 0x00000000)  returns 0x00 (0000ms, 7020ms total)
T1960 4810:155 JLINK_WriteReg(R4, 0x00000000)  returns 0x00 (0000ms, 7020ms total)
T1960 4810:155 JLINK_WriteReg(R5, 0x00000000)  returns 0x00 (0000ms, 7020ms total)
T1960 4810:155 JLINK_WriteReg(R6, 0x00000000)  returns 0x00 (0000ms, 7020ms total)
T1960 4810:155 JLINK_WriteReg(R7, 0x00000000)  returns 0x00 (0000ms, 7020ms total)
T1960 4810:155 JLINK_WriteReg(R8, 0x00000000)  returns 0x00 (0000ms, 7020ms total)
T1960 4810:155 JLINK_WriteReg(R9, 0x20000160)  returns 0x00 (0000ms, 7020ms total)
T1960 4810:155 JLINK_WriteReg(R10, 0x00000000)  returns 0x00 (0000ms, 7020ms total)
T1960 4810:155 JLINK_WriteReg(R11, 0x00000000)  returns 0x00 (0000ms, 7020ms total)
T1960 4810:155 JLINK_WriteReg(R12, 0x00000000)  returns 0x00 (0000ms, 7020ms total)
T1960 4810:155 JLINK_WriteReg(R13 (SP), 0x20000800)  returns 0x00 (0000ms, 7020ms total)
T1960 4810:155 JLINK_WriteReg(R14, 0x20000001)  returns 0x00 (0000ms, 7020ms total)
T1960 4810:155 JLINK_WriteReg(R15 (PC), 0x20000038)  returns 0x00 (0000ms, 7020ms total)
T1960 4810:155 JLINK_WriteReg(XPSR, 0x01000000)  returns 0x00 (0000ms, 7020ms total)
T1960 4810:155 JLINK_WriteReg(MSP, 0x20000800)  returns 0x00 (0000ms, 7020ms total)
T1960 4810:155 JLINK_WriteReg(PSP, 0x20000800)  returns 0x00 (0000ms, 7020ms total)
T1960 4810:155 JLINK_WriteReg(CFBP, 0x00000000)  returns 0x00 (0000ms, 7020ms total)
T1960 4810:155 JLINK_SetBPEx(Addr = 0x20000000, Type = 0xFFFFFFF2) -- CPU_ReadMem(2 bytes @ 0x20000000)  returns 0x00000001 (0000ms, 7020ms total)
T1960 4810:155 JLINK_Go() -- CPU_WriteMem(2 bytes @ 0x20000000) -- CPU_ReadMem(4 bytes @ 0xE0001000) -- CPU_WriteMem(4 bytes @ 0xE0002008) -- CPU_WriteMem(4 bytes @ 0xE000200C) -- CPU_WriteMem(4 bytes @ 0xE0002010) -- CPU_WriteMem(4 bytes @ 0xE0002014) -- CPU_WriteMem(4 bytes @ 0xE0002018) -- CPU_WriteMem(4 bytes @ 0xE000201C) -- CPU_WriteMem(4 bytes @ 0xE0001004) (0004ms, 7024ms total)
T1960 4810:159 JLINK_IsHalted() -- CPU_ReadMem(2 bytes @ 0x20000000)  returns TRUE (0002ms, 7026ms total)
T1960 4810:161 JLINK_ReadReg(R15 (PC))  returns 0x20000000 (0000ms, 7024ms total)
T1960 4810:161 JLINK_ClrBPEx(BPHandle = 0x00000001)  returns 0x00 (0000ms, 7024ms total)
T1960 4810:161 JLINK_ReadReg(R0)  returns 0x00000000 (0000ms, 7024ms total)
T1960 4810:161 JLINK_WriteReg(R0, 0x08000000)  returns 0x00 (0000ms, 7024ms total)
T1960 4810:161 JLINK_WriteReg(R1, 0x00B71B00)  returns 0x00 (0000ms, 7024ms total)
T1960 4810:161 JLINK_WriteReg(R2, 0x00000001)  returns 0x00 (0000ms, 7024ms total)
T1960 4810:161 JLINK_WriteReg(R3, 0x00000000)  returns 0x00 (0000ms, 7024ms total)
T1960 4810:161 JLINK_WriteReg(R4, 0x00000000)  returns 0x00 (0000ms, 7024ms total)
T1960 4810:161 JLINK_WriteReg(R5, 0x00000000)  returns 0x00 (0000ms, 7024ms total)
T1960 4810:161 JLINK_WriteReg(R6, 0x00000000)  returns 0x00 (0000ms, 7024ms total)
T1960 4810:161 JLINK_WriteReg(R7, 0x00000000)  returns 0x00 (0000ms, 7024ms total)
T1960 4810:161 JLINK_WriteReg(R8, 0x00000000)  returns 0x00 (0000ms, 7024ms total)
T1960 4810:161 JLINK_WriteReg(R9, 0x20000160)  returns 0x00 (0000ms, 7024ms total)
T1960 4810:161 JLINK_WriteReg(R10, 0x00000000)  returns 0x00 (0000ms, 7024ms total)
T1960 4810:161 JLINK_WriteReg(R11, 0x00000000)  returns 0x00 (0000ms, 7024ms total)
T1960 4810:161 JLINK_WriteReg(R12, 0x00000000)  returns 0x00 (0000ms, 7024ms total)
T1960 4810:161 JLINK_WriteReg(R13 (SP), 0x20000800)  returns 0x00 (0000ms, 7024ms total)
T1960 4810:161 JLINK_WriteReg(R14, 0x20000001)  returns 0x00 (0000ms, 7024ms total)
T1960 4810:161 JLINK_WriteReg(R15 (PC), 0x2000007C)  returns 0x00 (0000ms, 7024ms total)
T1960 4810:161 JLINK_WriteReg(XPSR, 0x01000000)  returns 0x00 (0000ms, 7024ms total)
T1960 4810:161 JLINK_WriteReg(MSP, 0x20000800)  returns 0x00 (0000ms, 7024ms total)
T1960 4810:161 JLINK_WriteReg(PSP, 0x20000800)  returns 0x00 (0000ms, 7024ms total)
T1960 4810:161 JLINK_WriteReg(CFBP, 0x00000000)  returns 0x00 (0000ms, 7024ms total)
T1960 4810:161 JLINK_SetBPEx(Addr = 0x20000000, Type = 0xFFFFFFF2)  returns 0x00000002 (0000ms, 7024ms total)
T1960 4810:161 JLINK_Go() -- CPU_ReadMem(4 bytes @ 0xE0001000) (0002ms, 7026ms total)
T1960 4810:163 JLINK_IsHalted()  returns FALSE (0000ms, 7026ms total)
T1960 4810:242 JLINK_IsHalted() -- CPU_ReadMem(2 bytes @ 0x20000000)  returns TRUE (0002ms, 7028ms total)
T1960 4810:244 JLINK_ReadReg(R15 (PC))  returns 0x20000000 (0000ms, 7026ms total)
T1960 4810:244 JLINK_ClrBPEx(BPHandle = 0x00000002)  returns 0x00 (0000ms, 7026ms total)
T1960 4810:244 JLINK_ReadReg(R0)  returns 0x00000000 (0000ms, 7026ms total)
T1960 4810:296 JLINK_WriteReg(R0, 0x00000001)  returns 0x00 (0000ms, 7026ms total)
T1960 4810:296 JLINK_WriteReg(R1, 0x00B71B00)  returns 0x00 (0000ms, 7026ms total)
T1960 4810:296 JLINK_WriteReg(R2, 0x00000001)  returns 0x00 (0000ms, 7026ms total)
T1960 4810:296 JLINK_WriteReg(R3, 0x00000000)  returns 0x00 (0000ms, 7026ms total)
T1960 4810:296 JLINK_WriteReg(R4, 0x00000000)  returns 0x00 (0000ms, 7026ms total)
T1960 4810:296 JLINK_WriteReg(R5, 0x00000000)  returns 0x00 (0000ms, 7026ms total)
T1960 4810:296 JLINK_WriteReg(R6, 0x00000000)  returns 0x00 (0000ms, 7026ms total)
T1960 4810:296 JLINK_WriteReg(R7, 0x00000000)  returns 0x00 (0000ms, 7026ms total)
T1960 4810:296 JLINK_WriteReg(R8, 0x00000000)  returns 0x00 (0000ms, 7026ms total)
T1960 4810:296 JLINK_WriteReg(R9, 0x20000160)  returns 0x00 (0000ms, 7026ms total)
T1960 4810:296 JLINK_WriteReg(R10, 0x00000000)  returns 0x00 (0000ms, 7026ms total)
T1960 4810:297 JLINK_WriteReg(R11, 0x00000000)  returns 0x00 (0000ms, 7027ms total)
T1960 4810:297 JLINK_WriteReg(R12, 0x00000000)  returns 0x00 (0000ms, 7027ms total)
T1960 4810:297 JLINK_WriteReg(R13 (SP), 0x20000800)  returns 0x00 (0000ms, 7027ms total)
T1960 4810:297 JLINK_WriteReg(R14, 0x20000001)  returns 0x00 (0000ms, 7027ms total)
T1960 4810:297 JLINK_WriteReg(R15 (PC), 0x2000006A)  returns 0x00 (0000ms, 7027ms total)
T1960 4810:297 JLINK_WriteReg(XPSR, 0x01000000)  returns 0x00 (0000ms, 7027ms total)
T1960 4810:297 JLINK_WriteReg(MSP, 0x20000800)  returns 0x00 (0000ms, 7027ms total)
T1960 4810:297 JLINK_WriteReg(PSP, 0x20000800)  returns 0x00 (0000ms, 7027ms total)
T1960 4810:297 JLINK_WriteReg(CFBP, 0x00000000)  returns 0x00 (0000ms, 7027ms total)
T1960 4810:297 JLINK_SetBPEx(Addr = 0x20000000, Type = 0xFFFFFFF2)  returns 0x00000003 (0000ms, 7027ms total)
T1960 4810:297 JLINK_Go() -- CPU_ReadMem(4 bytes @ 0xE0001000) (0001ms, 7028ms total)
T1960 4810:298 JLINK_IsHalted() -- CPU_ReadMem(2 bytes @ 0x20000000)  returns TRUE (0003ms, 7031ms total)
T1960 4810:301 JLINK_ReadReg(R15 (PC))  returns 0x20000000 (0000ms, 7028ms total)
T1960 4810:301 JLINK_ClrBPEx(BPHandle = 0x00000003)  returns 0x00 (0000ms, 7028ms total)
T1960 4810:301 JLINK_ReadReg(R0)  returns 0x00000000 (0000ms, 7028ms total)
T1960 4810:305 JLINK_WriteMem(0x20000000, 0x0164 Bytes, ...) - Data: 00 BE 0A E0 0D 78 2D 06 68 40 08 24 40 00 00 D3 ... -- CPU_WriteMem(356 bytes @ 0x20000000)  returns 0x164 (0003ms, 7031ms total)
T1960 4810:308 JLINK_WriteReg(R0, 0x08000000)  returns 0x00 (0000ms, 7031ms total)
T1960 4810:308 JLINK_WriteReg(R1, 0x00B71B00)  returns 0x00 (0000ms, 7031ms total)
T1960 4810:308 JLINK_WriteReg(R2, 0x00000002)  returns 0x00 (0000ms, 7031ms total)
T1960 4810:308 JLINK_WriteReg(R3, 0x00000000)  returns 0x00 (0000ms, 7031ms total)
T1960 4810:308 JLINK_WriteReg(R4, 0x00000000)  returns 0x00 (0000ms, 7031ms total)
T1960 4810:308 JLINK_WriteReg(R5, 0x00000000)  returns 0x00 (0000ms, 7031ms total)
T1960 4810:308 JLINK_WriteReg(R6, 0x00000000)  returns 0x00 (0000ms, 7031ms total)
T1960 4810:308 JLINK_WriteReg(R7, 0x00000000)  returns 0x00 (0000ms, 7031ms total)
T1960 4810:308 JLINK_WriteReg(R8, 0x00000000)  returns 0x00 (0000ms, 7031ms total)
T1960 4810:308 JLINK_WriteReg(R9, 0x20000160)  returns 0x00 (0000ms, 7031ms total)
T1960 4810:308 JLINK_WriteReg(R10, 0x00000000)  returns 0x00 (0000ms, 7031ms total)
T1960 4810:308 JLINK_WriteReg(R11, 0x00000000)  returns 0x00 (0000ms, 7031ms total)
T1960 4810:308 JLINK_WriteReg(R12, 0x00000000)  returns 0x00 (0000ms, 7031ms total)
T1960 4810:308 JLINK_WriteReg(R13 (SP), 0x20000800)  returns 0x00 (0000ms, 7031ms total)
T1960 4810:308 JLINK_WriteReg(R14, 0x20000001)  returns 0x00 (0000ms, 7031ms total)
T1960 4810:308 JLINK_WriteReg(R15 (PC), 0x20000038)  returns 0x00 (0000ms, 7031ms total)
T1960 4810:308 JLINK_WriteReg(XPSR, 0x01000000)  returns 0x00 (0000ms, 7031ms total)
T1960 4810:308 JLINK_WriteReg(MSP, 0x20000800)  returns 0x00 (0000ms, 7031ms total)
T1960 4810:308 JLINK_WriteReg(PSP, 0x20000800)  returns 0x00 (0000ms, 7031ms total)
T1960 4810:308 JLINK_WriteReg(CFBP, 0x00000000)  returns 0x00 (0000ms, 7031ms total)
T1960 4810:308 JLINK_SetBPEx(Addr = 0x20000000, Type = 0xFFFFFFF2) -- CPU_ReadMem(2 bytes @ 0x20000000)  returns 0x00000004 (0000ms, 7031ms total)
T1960 4810:308 JLINK_Go() -- CPU_WriteMem(2 bytes @ 0x20000000) -- CPU_ReadMem(4 bytes @ 0xE0001000) (0002ms, 7033ms total)
T1960 4810:310 JLINK_IsHalted() -- CPU_ReadMem(2 bytes @ 0x20000000)  returns TRUE (0002ms, 7035ms total)
T1960 4810:312 JLINK_ReadReg(R15 (PC))  returns 0x20000000 (0000ms, 7033ms total)
T1960 4810:312 JLINK_ClrBPEx(BPHandle = 0x00000004)  returns 0x00 (0000ms, 7033ms total)
T1960 4810:312 JLINK_ReadReg(R0)  returns 0x00000000 (0000ms, 7033ms total)
T1960 4810:313 JLINK_WriteMem(0x20000164, 0x029C Bytes, ...) - Data: A8 14 00 20 45 01 00 08 79 1F 00 08 7B 1F 00 08 ... -- CPU_WriteMem(668 bytes @ 0x20000164)  returns 0x29C (0004ms, 7037ms total)
T1960 4810:317 JLINK_WriteMem(0x20000400, 0x0164 Bytes, ...) - Data: 21 4B 5B 68 03 F0 0C 01 21 B1 04 29 06 D0 08 29 ... -- CPU_WriteMem(356 bytes @ 0x20000400)  returns 0x164 (0003ms, 7040ms total)
T1960 4810:320 JLINK_WriteReg(R0, 0x08000000)  returns 0x00 (0000ms, 7040ms total)
T1960 4810:320 JLINK_WriteReg(R1, 0x00000400)  returns 0x00 (0000ms, 7040ms total)
T1960 4810:320 JLINK_WriteReg(R2, 0x20000164)  returns 0x00 (0000ms, 7040ms total)
T1960 4810:320 JLINK_WriteReg(R3, 0x00000000)  returns 0x00 (0000ms, 7040ms total)
T1960 4810:320 JLINK_WriteReg(R4, 0x00000000)  returns 0x00 (0000ms, 7040ms total)
T1960 4810:320 JLINK_WriteReg(R5, 0x00000000)  returns 0x00 (0000ms, 7040ms total)
T1960 4810:320 JLINK_WriteReg(R6, 0x00000000)  returns 0x00 (0000ms, 7040ms total)
T1960 4810:320 JLINK_WriteReg(R7, 0x00000000)  returns 0x00 (0000ms, 7040ms total)
T1960 4810:320 JLINK_WriteReg(R8, 0x00000000)  returns 0x00 (0000ms, 7040ms total)
T1960 4810:320 JLINK_WriteReg(R9, 0x20000160)  returns 0x00 (0000ms, 7040ms total)
T1960 4810:320 JLINK_WriteReg(R10, 0x00000000)  returns 0x00 (0000ms, 7040ms total)
T1960 4810:320 JLINK_WriteReg(R11, 0x00000000)  returns 0x00 (0000ms, 7040ms total)
T1960 4810:320 JLINK_WriteReg(R12, 0x00000000)  returns 0x00 (0000ms, 7040ms total)
T1960 4810:320 JLINK_WriteReg(R13 (SP), 0x20000800)  returns 0x00 (0000ms, 7040ms total)
T1960 4810:320 JLINK_WriteReg(R14, 0x20000001)  returns 0x00 (0000ms, 7040ms total)
T1960 4810:320 JLINK_WriteReg(R15 (PC), 0x200000F4)  returns 0x00 (0000ms, 7040ms total)
T1960 4810:320 JLINK_WriteReg(XPSR, 0x01000000)  returns 0x00 (0000ms, 7040ms total)
T1960 4810:320 JLINK_WriteReg(MSP, 0x20000800)  returns 0x00 (0000ms, 7040ms total)
T1960 4810:320 JLINK_WriteReg(PSP, 0x20000800)  returns 0x00 (0000ms, 7040ms total)
T1960 4810:320 JLINK_WriteReg(CFBP, 0x00000000)  returns 0x00 (0000ms, 7040ms total)
T1960 4810:320 JLINK_SetBPEx(Addr = 0x20000000, Type = 0xFFFFFFF2)  returns 0x00000005 (0000ms, 7040ms total)
T1960 4810:320 JLINK_Go() -- CPU_ReadMem(4 bytes @ 0xE0001000) (0001ms, 7041ms total)
T1960 4810:321 JLINK_IsHalted()  returns FALSE (0001ms, 7042ms total)
T1960 4810:356 JLINK_IsHalted() -- CPU_ReadMem(2 bytes @ 0x20000000)  returns TRUE (0002ms, 7043ms total)
T1960 4810:358 JLINK_ReadReg(R15 (PC))  returns 0x20000000 (0000ms, 7041ms total)
T1960 4810:358 JLINK_ClrBPEx(BPHandle = 0x00000005)  returns 0x00 (0000ms, 7041ms total)
T1960 4810:358 JLINK_ReadReg(R0)  returns 0x00000000 (0000ms, 7041ms total)
T1960 4810:358 JLINK_WriteMem(0x20000164, 0x029C Bytes, ...) - Data: 09 69 21 F0 04 01 4F F0 E0 22 11 61 70 47 00 00 ... -- CPU_WriteMem(668 bytes @ 0x20000164)  returns 0x29C (0005ms, 7046ms total)
T1960 4810:363 JLINK_WriteMem(0x20000400, 0x0164 Bytes, ...) - Data: 14 60 B1 F8 00 C0 BC F1 FF 0F 34 DD 54 68 00 20 ... -- CPU_WriteMem(356 bytes @ 0x20000400)  returns 0x164 (0003ms, 7049ms total)
T1960 4810:366 JLINK_WriteReg(R0, 0x08000400)  returns 0x00 (0000ms, 7049ms total)
T1960 4810:366 JLINK_WriteReg(R1, 0x00000400)  returns 0x00 (0000ms, 7049ms total)
T1960 4810:366 JLINK_WriteReg(R2, 0x20000164)  returns 0x00 (0000ms, 7049ms total)
T1960 4810:366 JLINK_WriteReg(R3, 0x00000000)  returns 0x00 (0000ms, 7049ms total)
T1960 4810:366 JLINK_WriteReg(R4, 0x00000000)  returns 0x00 (0000ms, 7049ms total)
T1960 4810:366 JLINK_WriteReg(R5, 0x00000000)  returns 0x00 (0000ms, 7049ms total)
T1960 4810:366 JLINK_WriteReg(R6, 0x00000000)  returns 0x00 (0000ms, 7049ms total)
T1960 4810:366 JLINK_WriteReg(R7, 0x00000000)  returns 0x00 (0000ms, 7049ms total)
T1960 4810:366 JLINK_WriteReg(R8, 0x00000000)  returns 0x00 (0000ms, 7049ms total)
T1960 4810:366 JLINK_WriteReg(R9, 0x20000160)  returns 0x00 (0000ms, 7049ms total)
T1960 4810:366 JLINK_WriteReg(R10, 0x00000000)  returns 0x00 (0000ms, 7049ms total)
T1960 4810:366 JLINK_WriteReg(R11, 0x00000000)  returns 0x00 (0000ms, 7049ms total)
T1960 4810:366 JLINK_WriteReg(R12, 0x00000000)  returns 0x00 (0000ms, 7049ms total)
T1960 4810:366 JLINK_WriteReg(R13 (SP), 0x20000800)  returns 0x00 (0000ms, 7049ms total)
T1960 4810:366 JLINK_WriteReg(R14, 0x20000001)  returns 0x00 (0000ms, 7049ms total)
T1960 4810:366 JLINK_WriteReg(R15 (PC), 0x200000F4)  returns 0x00 (0000ms, 7049ms total)
T1960 4810:366 JLINK_WriteReg(XPSR, 0x01000000)  returns 0x00 (0000ms, 7049ms total)
T1960 4810:366 JLINK_WriteReg(MSP, 0x20000800)  returns 0x00 (0000ms, 7049ms total)
T1960 4810:366 JLINK_WriteReg(PSP, 0x20000800)  returns 0x00 (0000ms, 7049ms total)
T1960 4810:366 JLINK_WriteReg(CFBP, 0x00000000)  returns 0x00 (0000ms, 7049ms total)
T1960 4810:366 JLINK_SetBPEx(Addr = 0x20000000, Type = 0xFFFFFFF2)  returns 0x00000006 (0000ms, 7049ms total)
T1960 4810:366 JLINK_Go() -- CPU_ReadMem(4 bytes @ 0xE0001000) (0002ms, 7051ms total)
T1960 4810:368 JLINK_IsHalted()  returns FALSE (0000ms, 7051ms total)
T1960 4810:374 JLINK_IsHalted()  returns FALSE (0000ms, 7051ms total)
T1960 4810:378 JLINK_IsHalted()  returns FALSE (0000ms, 7051ms total)
T1960 4810:381 JLINK_IsHalted()  returns FALSE (0000ms, 7051ms total)
T1960 4810:383 JLINK_IsHalted()  returns FALSE (0000ms, 7051ms total)
T1960 4810:386 JLINK_IsHalted()  returns FALSE (0000ms, 7051ms total)
T1960 4810:389 JLINK_IsHalted()  returns FALSE (0000ms, 7051ms total)
T1960 4810:395 JLINK_IsHalted()  returns FALSE (0000ms, 7051ms total)
T1960 4810:398 JLINK_IsHalted()  returns FALSE (0000ms, 7051ms total)
T1960 4810:401 JLINK_IsHalted() -- CPU_ReadMem(2 bytes @ 0x20000000)  returns TRUE (0002ms, 7053ms total)
T1960 4810:403 JLINK_ReadReg(R15 (PC))  returns 0x20000000 (0000ms, 7051ms total)
T1960 4810:403 JLINK_ClrBPEx(BPHandle = 0x00000006)  returns 0x00 (0000ms, 7051ms total)
T1960 4810:403 JLINK_ReadReg(R0)  returns 0x00000000 (0000ms, 7051ms total)
T1960 4810:404 JLINK_WriteMem(0x20000164, 0x029C Bytes, ...) - Data: 03 FA 06 F6 B1 43 41 F0 70 61 22 B1 46 0D 36 01 ... -- CPU_WriteMem(668 bytes @ 0x20000164)  returns 0x29C (0004ms, 7055ms total)
T1960 4810:408 JLINK_WriteMem(0x20000400, 0x0164 Bytes, ...) - Data: 70 47 30 B5 00 21 00 22 00 24 00 23 5C 4D 6D 68 ... -- CPU_WriteMem(356 bytes @ 0x20000400)  returns 0x164 (0002ms, 7057ms total)
T1960 4810:410 JLINK_WriteReg(R0, 0x08000800)  returns 0x00 (0000ms, 7057ms total)
T1960 4810:410 JLINK_WriteReg(R1, 0x00000400)  returns 0x00 (0000ms, 7057ms total)
T1960 4810:410 JLINK_WriteReg(R2, 0x20000164)  returns 0x00 (0000ms, 7057ms total)
T1960 4810:410 JLINK_WriteReg(R3, 0x00000000)  returns 0x00 (0000ms, 7057ms total)
T1960 4810:410 JLINK_WriteReg(R4, 0x00000000)  returns 0x00 (0000ms, 7057ms total)
T1960 4810:410 JLINK_WriteReg(R5, 0x00000000)  returns 0x00 (0000ms, 7057ms total)
T1960 4810:410 JLINK_WriteReg(R6, 0x00000000)  returns 0x00 (0000ms, 7057ms total)
T1960 4810:410 JLINK_WriteReg(R7, 0x00000000)  returns 0x00 (0000ms, 7057ms total)
T1960 4810:410 JLINK_WriteReg(R8, 0x00000000)  returns 0x00 (0000ms, 7057ms total)
T1960 4810:410 JLINK_WriteReg(R9, 0x20000160)  returns 0x00 (0000ms, 7057ms total)
T1960 4810:410 JLINK_WriteReg(R10, 0x00000000)  returns 0x00 (0000ms, 7057ms total)
T1960 4810:410 JLINK_WriteReg(R11, 0x00000000)  returns 0x00 (0000ms, 7057ms total)
T1960 4810:410 JLINK_WriteReg(R12, 0x00000000)  returns 0x00 (0000ms, 7057ms total)
T1960 4810:410 JLINK_WriteReg(R13 (SP), 0x20000800)  returns 0x00 (0000ms, 7057ms total)
T1960 4810:410 JLINK_WriteReg(R14, 0x20000001)  returns 0x00 (0001ms, 7058ms total)
T1960 4810:411 JLINK_WriteReg(R15 (PC), 0x200000F4)  returns 0x00 (0000ms, 7058ms total)
T1960 4810:411 JLINK_WriteReg(XPSR, 0x01000000)  returns 0x00 (0000ms, 7058ms total)
T1960 4810:411 JLINK_WriteReg(MSP, 0x20000800)  returns 0x00 (0000ms, 7058ms total)
T1960 4810:411 JLINK_WriteReg(PSP, 0x20000800)  returns 0x00 (0000ms, 7058ms total)
T1960 4810:411 JLINK_WriteReg(CFBP, 0x00000000)  returns 0x00 (0000ms, 7058ms total)
T1960 4810:411 JLINK_SetBPEx(Addr = 0x20000000, Type = 0xFFFFFFF2)  returns 0x00000007 (0000ms, 7058ms total)
T1960 4810:411 JLINK_Go() -- CPU_ReadMem(4 bytes @ 0xE0001000) (0001ms, 7059ms total)
T1960 4810:412 JLINK_IsHalted()  returns FALSE (0000ms, 7059ms total)
T1960 4810:418 JLINK_IsHalted()  returns FALSE (0000ms, 7059ms total)
T1960 4810:427 JLINK_IsHalted()  returns FALSE (0000ms, 7059ms total)
T1960 4810:431 JLINK_IsHalted()  returns FALSE (0000ms, 7059ms total)
T1960 4810:434 JLINK_IsHalted()  returns FALSE (0000ms, 7059ms total)
T1960 4810:437 JLINK_IsHalted()  returns FALSE (0000ms, 7059ms total)
T1960 4810:442 JLINK_IsHalted()  returns FALSE (0000ms, 7059ms total)
T1960 4810:445 JLINK_IsHalted() -- CPU_ReadMem(2 bytes @ 0x20000000)  returns TRUE (0002ms, 7061ms total)
T1960 4810:447 JLINK_ReadReg(R15 (PC))  returns 0x20000000 (0000ms, 7059ms total)
T1960 4810:447 JLINK_ClrBPEx(BPHandle = 0x00000007)  returns 0x00 (0000ms, 7059ms total)
T1960 4810:447 JLINK_ReadReg(R0)  returns 0x00000000 (0000ms, 7059ms total)
T1960 4810:448 JLINK_WriteMem(0x20000164, 0x029C Bytes, ...) - Data: 70 47 01 46 00 20 05 4A 92 68 0A 40 0A B1 01 20 ... -- CPU_WriteMem(668 bytes @ 0x20000164)  returns 0x29C (0004ms, 7063ms total)
T1960 4810:452 JLINK_WriteMem(0x20000400, 0x0164 Bytes, ...) - Data: A8 42 08 D0 74 4D A8 42 05 D0 74 4D A8 42 02 D0 ... -- CPU_WriteMem(356 bytes @ 0x20000400)  returns 0x164 (0002ms, 7065ms total)
T1960 4810:454 JLINK_WriteReg(R0, 0x08000C00)  returns 0x00 (0000ms, 7065ms total)
T1960 4810:454 JLINK_WriteReg(R1, 0x00000400)  returns 0x00 (0000ms, 7065ms total)
T1960 4810:454 JLINK_WriteReg(R2, 0x20000164)  returns 0x00 (0000ms, 7065ms total)
T1960 4810:454 JLINK_WriteReg(R3, 0x00000000)  returns 0x00 (0000ms, 7065ms total)
T1960 4810:454 JLINK_WriteReg(R4, 0x00000000)  returns 0x00 (0000ms, 7065ms total)
T1960 4810:454 JLINK_WriteReg(R5, 0x00000000)  returns 0x00 (0000ms, 7065ms total)
T1960 4810:454 JLINK_WriteReg(R6, 0x00000000)  returns 0x00 (0000ms, 7065ms total)
T1960 4810:454 JLINK_WriteReg(R7, 0x00000000)  returns 0x00 (0000ms, 7065ms total)
T1960 4810:454 JLINK_WriteReg(R8, 0x00000000)  returns 0x00 (0000ms, 7065ms total)
T1960 4810:454 JLINK_WriteReg(R9, 0x20000160)  returns 0x00 (0000ms, 7065ms total)
T1960 4810:454 JLINK_WriteReg(R10, 0x00000000)  returns 0x00 (0000ms, 7065ms total)
T1960 4810:454 JLINK_WriteReg(R11, 0x00000000)  returns 0x00 (0000ms, 7065ms total)
T1960 4810:454 JLINK_WriteReg(R12, 0x00000000)  returns 0x00 (0000ms, 7065ms total)
T1960 4810:454 JLINK_WriteReg(R13 (SP), 0x20000800)  returns 0x00 (0000ms, 7065ms total)
T1960 4810:454 JLINK_WriteReg(R14, 0x20000001)  returns 0x00 (0000ms, 7065ms total)
T1960 4810:454 JLINK_WriteReg(R15 (PC), 0x200000F4)  returns 0x00 (0000ms, 7065ms total)
T1960 4810:454 JLINK_WriteReg(XPSR, 0x01000000)  returns 0x00 (0000ms, 7065ms total)
T1960 4810:454 JLINK_WriteReg(MSP, 0x20000800)  returns 0x00 (0001ms, 7066ms total)
T1960 4810:455 JLINK_WriteReg(PSP, 0x20000800)  returns 0x00 (0000ms, 7066ms total)
T1960 4810:455 JLINK_WriteReg(CFBP, 0x00000000)  returns 0x00 (0000ms, 7066ms total)
T1960 4810:455 JLINK_SetBPEx(Addr = 0x20000000, Type = 0xFFFFFFF2)  returns 0x00000008 (0000ms, 7066ms total)
T1960 4810:455 JLINK_Go() -- CPU_ReadMem(4 bytes @ 0xE0001000) (0001ms, 7067ms total)
T1960 4810:456 JLINK_IsHalted()  returns FALSE (0001ms, 7068ms total)
T1960 4810:461 JLINK_IsHalted()  returns FALSE (0000ms, 7067ms total)
T1960 4810:463 JLINK_IsHalted()  returns FALSE (0000ms, 7067ms total)
T1960 4810:466 JLINK_IsHalted()  returns FALSE (0000ms, 7067ms total)
T1960 4810:478 JLINK_IsHalted()  returns FALSE (0000ms, 7067ms total)
T1960 4810:482 JLINK_IsHalted()  returns FALSE (0000ms, 7067ms total)
T1960 4810:488 JLINK_IsHalted() -- CPU_ReadMem(2 bytes @ 0x20000000)  returns TRUE (0002ms, 7069ms total)
T1960 4810:490 JLINK_ReadReg(R15 (PC))  returns 0x20000000 (0000ms, 7067ms total)
T1960 4810:490 JLINK_ClrBPEx(BPHandle = 0x00000008)  returns 0x00 (0000ms, 7067ms total)
T1960 4810:490 JLINK_ReadReg(R0)  returns 0x00000000 (0000ms, 7067ms total)
T1960 4810:491 JLINK_WriteMem(0x20000164, 0x029C Bytes, ...) - Data: 2B 43 CD 89 06 EA 05 15 2B 43 83 80 84 83 CD 88 ... -- CPU_WriteMem(668 bytes @ 0x20000164)  returns 0x29C (0004ms, 7071ms total)
T1960 4810:495 JLINK_WriteMem(0x20000400, 0x0164 Bytes, ...) - Data: 0A 43 02 83 70 47 F0 B5 0C 46 15 46 00 22 00 21 ... -- CPU_WriteMem(356 bytes @ 0x20000400)  returns 0x164 (0002ms, 7073ms total)
T1960 4810:497 JLINK_WriteReg(R0, 0x08001000)  returns 0x00 (0000ms, 7073ms total)
T1960 4810:497 JLINK_WriteReg(R1, 0x00000400)  returns 0x00 (0000ms, 7073ms total)
T1960 4810:497 JLINK_WriteReg(R2, 0x20000164)  returns 0x00 (0000ms, 7073ms total)
T1960 4810:497 JLINK_WriteReg(R3, 0x00000000)  returns 0x00 (0000ms, 7073ms total)
T1960 4810:497 JLINK_WriteReg(R4, 0x00000000)  returns 0x00 (0000ms, 7073ms total)
T1960 4810:497 JLINK_WriteReg(R5, 0x00000000)  returns 0x00 (0000ms, 7073ms total)
T1960 4810:497 JLINK_WriteReg(R6, 0x00000000)  returns 0x00 (0000ms, 7073ms total)
T1960 4810:497 JLINK_WriteReg(R7, 0x00000000)  returns 0x00 (0001ms, 7074ms total)
T1960 4810:498 JLINK_WriteReg(R8, 0x00000000)  returns 0x00 (0000ms, 7074ms total)
T1960 4810:498 JLINK_WriteReg(R9, 0x20000160)  returns 0x00 (0000ms, 7074ms total)
T1960 4810:498 JLINK_WriteReg(R10, 0x00000000)  returns 0x00 (0000ms, 7074ms total)
T1960 4810:498 JLINK_WriteReg(R11, 0x00000000)  returns 0x00 (0000ms, 7074ms total)
T1960 4810:498 JLINK_WriteReg(R12, 0x00000000)  returns 0x00 (0000ms, 7074ms total)
T1960 4810:498 JLINK_WriteReg(R13 (SP), 0x20000800)  returns 0x00 (0000ms, 7074ms total)
T1960 4810:498 JLINK_WriteReg(R14, 0x20000001)  returns 0x00 (0000ms, 7074ms total)
T1960 4810:498 JLINK_WriteReg(R15 (PC), 0x200000F4)  returns 0x00 (0000ms, 7074ms total)
T1960 4810:498 JLINK_WriteReg(XPSR, 0x01000000)  returns 0x00 (0000ms, 7074ms total)
T1960 4810:498 JLINK_WriteReg(MSP, 0x20000800)  returns 0x00 (0000ms, 7074ms total)
T1960 4810:498 JLINK_WriteReg(PSP, 0x20000800)  returns 0x00 (0000ms, 7074ms total)
T1960 4810:498 JLINK_WriteReg(CFBP, 0x00000000)  returns 0x00 (0000ms, 7074ms total)
T1960 4810:498 JLINK_SetBPEx(Addr = 0x20000000, Type = 0xFFFFFFF2)  returns 0x00000009 (0000ms, 7074ms total)
T1960 4810:498 JLINK_Go() -- CPU_ReadMem(4 bytes @ 0xE0001000) (0001ms, 7075ms total)
T1960 4810:499 JLINK_IsHalted()  returns FALSE (0001ms, 7076ms total)
T1960 4810:502 JLINK_IsHalted()  returns FALSE (0000ms, 7075ms total)
T1960 4810:504 JLINK_IsHalted()  returns FALSE (0000ms, 7075ms total)
T1960 4810:506 JLINK_IsHalted()  returns FALSE (0000ms, 7075ms total)
T1960 4810:508 JLINK_IsHalted()  returns FALSE (0000ms, 7075ms total)
T1960 4810:510 JLINK_IsHalted()  returns FALSE (0000ms, 7075ms total)
T1960 4810:512 JLINK_IsHalted()  returns FALSE (0000ms, 7075ms total)
T1960 4810:514 JLINK_IsHalted()  returns FALSE (0000ms, 7075ms total)
T1960 4810:516 JLINK_IsHalted()  returns FALSE (0000ms, 7075ms total)
T1960 4810:518 JLINK_IsHalted()  returns FALSE (0000ms, 7075ms total)
T1960 4810:520 JLINK_IsHalted()  returns FALSE (0000ms, 7075ms total)
T1960 4810:522 JLINK_IsHalted()  returns FALSE (0000ms, 7075ms total)
T1960 4810:524 JLINK_IsHalted()  returns FALSE (0000ms, 7075ms total)
T1960 4810:526 JLINK_IsHalted()  returns FALSE (0000ms, 7075ms total)
T1960 4810:528 JLINK_IsHalted()  returns FALSE (0000ms, 7075ms total)
T1960 4810:530 JLINK_IsHalted()  returns FALSE (0000ms, 7075ms total)
T1960 4810:532 JLINK_IsHalted() -- CPU_ReadMem(2 bytes @ 0x20000000)  returns TRUE (0002ms, 7077ms total)
T1960 4810:534 JLINK_ReadReg(R15 (PC))  returns 0x20000000 (0000ms, 7075ms total)
T1960 4810:534 JLINK_ClrBPEx(BPHandle = 0x00000009)  returns 0x00 (0000ms, 7075ms total)
T1960 4810:534 JLINK_ReadReg(R0)  returns 0x00000000 (0000ms, 7075ms total)
T1960 4810:534 JLINK_WriteMem(0x20000164, 0x029C Bytes, ...) - Data: E1 88 28 46 FF F7 F6 FE 23 89 3A 46 31 46 28 46 ... -- CPU_WriteMem(668 bytes @ 0x20000164)  returns 0x29C (0004ms, 7079ms total)
T1960 4810:538 JLINK_WriteMem(0x20000400, 0x0164 Bytes, ...) - Data: 81 83 70 47 21 B1 02 88 42 F0 80 02 02 80 04 E0 ... -- CPU_WriteMem(356 bytes @ 0x20000400)  returns 0x164 (0003ms, 7082ms total)
T1960 4810:541 JLINK_WriteReg(R0, 0x08001400)  returns 0x00 (0000ms, 7082ms total)
T1960 4810:541 JLINK_WriteReg(R1, 0x00000400)  returns 0x00 (0000ms, 7082ms total)
T1960 4810:541 JLINK_WriteReg(R2, 0x20000164)  returns 0x00 (0000ms, 7082ms total)
T1960 4810:541 JLINK_WriteReg(R3, 0x00000000)  returns 0x00 (0000ms, 7082ms total)
T1960 4810:541 JLINK_WriteReg(R4, 0x00000000)  returns 0x00 (0000ms, 7082ms total)
T1960 4810:541 JLINK_WriteReg(R5, 0x00000000)  returns 0x00 (0000ms, 7082ms total)
T1960 4810:541 JLINK_WriteReg(R6, 0x00000000)  returns 0x00 (0000ms, 7082ms total)
T1960 4810:541 JLINK_WriteReg(R7, 0x00000000)  returns 0x00 (0000ms, 7082ms total)
T1960 4810:541 JLINK_WriteReg(R8, 0x00000000)  returns 0x00 (0000ms, 7082ms total)
T1960 4810:541 JLINK_WriteReg(R9, 0x20000160)  returns 0x00 (0000ms, 7082ms total)
T1960 4810:541 JLINK_WriteReg(R10, 0x00000000)  returns 0x00 (0000ms, 7082ms total)
T1960 4810:541 JLINK_WriteReg(R11, 0x00000000)  returns 0x00 (0000ms, 7082ms total)
T1960 4810:541 JLINK_WriteReg(R12, 0x00000000)  returns 0x00 (0000ms, 7082ms total)
T1960 4810:541 JLINK_WriteReg(R13 (SP), 0x20000800)  returns 0x00 (0000ms, 7082ms total)
T1960 4810:541 JLINK_WriteReg(R14, 0x20000001)  returns 0x00 (0000ms, 7082ms total)
T1960 4810:541 JLINK_WriteReg(R15 (PC), 0x200000F4)  returns 0x00 (0000ms, 7082ms total)
T1960 4810:541 JLINK_WriteReg(XPSR, 0x01000000)  returns 0x00 (0000ms, 7082ms total)
T1960 4810:541 JLINK_WriteReg(MSP, 0x20000800)  returns 0x00 (0000ms, 7082ms total)
T1960 4810:541 JLINK_WriteReg(PSP, 0x20000800)  returns 0x00 (0000ms, 7082ms total)
T1960 4810:541 JLINK_WriteReg(CFBP, 0x00000000)  returns 0x00 (0000ms, 7082ms total)
T1960 4810:541 JLINK_SetBPEx(Addr = 0x20000000, Type = 0xFFFFFFF2)  returns 0x0000000A (0000ms, 7082ms total)
T1960 4810:541 JLINK_Go() -- CPU_ReadMem(4 bytes @ 0xE0001000) (0002ms, 7084ms total)
T1960 4810:543 JLINK_IsHalted()  returns FALSE (0000ms, 7084ms total)
T1960 4810:545 JLINK_IsHalted()  returns FALSE (0000ms, 7084ms total)
T1960 4810:549 JLINK_IsHalted()  returns FALSE (0000ms, 7084ms total)
T1960 4810:551 JLINK_IsHalted()  returns FALSE (0000ms, 7084ms total)
T1960 4810:553 JLINK_IsHalted()  returns FALSE (0000ms, 7084ms total)
T1960 4810:555 JLINK_IsHalted()  returns FALSE (0000ms, 7084ms total)
T1960 4810:557 JLINK_IsHalted()  returns FALSE (0000ms, 7084ms total)
T1960 4810:559 JLINK_IsHalted()  returns FALSE (0000ms, 7084ms total)
T1960 4810:561 JLINK_IsHalted()  returns FALSE (0000ms, 7084ms total)
T1960 4810:563 JLINK_IsHalted()  returns FALSE (0000ms, 7084ms total)
T1960 4810:565 JLINK_IsHalted()  returns FALSE (0000ms, 7084ms total)
T1960 4810:567 JLINK_IsHalted()  returns FALSE (0000ms, 7084ms total)
T1960 4810:569 JLINK_IsHalted()  returns FALSE (0000ms, 7084ms total)
T1960 4810:571 JLINK_IsHalted()  returns FALSE (0000ms, 7084ms total)
T1960 4810:573 JLINK_IsHalted()  returns FALSE (0000ms, 7084ms total)
T1960 4810:575 JLINK_IsHalted() -- CPU_ReadMem(2 bytes @ 0x20000000)  returns TRUE (0002ms, 7086ms total)
T1960 4810:577 JLINK_ReadReg(R15 (PC))  returns 0x20000000 (0000ms, 7084ms total)
T1960 4810:577 JLINK_ClrBPEx(BPHandle = 0x0000000A)  returns 0x00 (0000ms, 7084ms total)
T1960 4810:577 JLINK_ReadReg(R0)  returns 0x00000000 (0000ms, 7084ms total)
T1960 4810:577 JLINK_WriteMem(0x20000164, 0x029C Bytes, ...) - Data: 81 83 70 47 0A 46 00 21 01 8C 4F F6 FD 73 19 40 ... -- CPU_WriteMem(668 bytes @ 0x20000164)  returns 0x29C (0004ms, 7088ms total)
T1960 4810:582 JLINK_WriteMem(0x20000400, 0x0164 Bytes, ...) - Data: 88 04 FF F7 92 F8 00 21 4F F4 80 20 FF F7 8D F8 ... -- CPU_WriteMem(356 bytes @ 0x20000400)  returns 0x164 (0002ms, 7090ms total)
T1960 4810:584 JLINK_WriteReg(R0, 0x08001800)  returns 0x00 (0000ms, 7090ms total)
T1960 4810:584 JLINK_WriteReg(R1, 0x00000400)  returns 0x00 (0000ms, 7090ms total)
T1960 4810:584 JLINK_WriteReg(R2, 0x20000164)  returns 0x00 (0000ms, 7090ms total)
T1960 4810:584 JLINK_WriteReg(R3, 0x00000000)  returns 0x00 (0000ms, 7090ms total)
T1960 4810:584 JLINK_WriteReg(R4, 0x00000000)  returns 0x00 (0000ms, 7090ms total)
T1960 4810:584 JLINK_WriteReg(R5, 0x00000000)  returns 0x00 (0000ms, 7090ms total)
T1960 4810:584 JLINK_WriteReg(R6, 0x00000000)  returns 0x00 (0000ms, 7090ms total)
T1960 4810:584 JLINK_WriteReg(R7, 0x00000000)  returns 0x00 (0000ms, 7090ms total)
T1960 4810:584 JLINK_WriteReg(R8, 0x00000000)  returns 0x00 (0000ms, 7090ms total)
T1960 4810:584 JLINK_WriteReg(R9, 0x20000160)  returns 0x00 (0000ms, 7090ms total)
T1960 4810:584 JLINK_WriteReg(R10, 0x00000000)  returns 0x00 (0000ms, 7090ms total)
T1960 4810:584 JLINK_WriteReg(R11, 0x00000000)  returns 0x00 (0000ms, 7090ms total)
T1960 4810:584 JLINK_WriteReg(R12, 0x00000000)  returns 0x00 (0000ms, 7090ms total)
T1960 4810:584 JLINK_WriteReg(R13 (SP), 0x20000800)  returns 0x00 (0000ms, 7090ms total)
T1960 4810:584 JLINK_WriteReg(R14, 0x20000001)  returns 0x00 (0000ms, 7090ms total)
T1960 4810:584 JLINK_WriteReg(R15 (PC), 0x200000F4)  returns 0x00 (0000ms, 7090ms total)
T1960 4810:584 JLINK_WriteReg(XPSR, 0x01000000)  returns 0x00 (0000ms, 7090ms total)
T1960 4810:584 JLINK_WriteReg(MSP, 0x20000800)  returns 0x00 (0000ms, 7090ms total)
T1960 4810:584 JLINK_WriteReg(PSP, 0x20000800)  returns 0x00 (0000ms, 7090ms total)
T1960 4810:584 JLINK_WriteReg(CFBP, 0x00000000)  returns 0x00 (0000ms, 7090ms total)
T1960 4810:584 JLINK_SetBPEx(Addr = 0x20000000, Type = 0xFFFFFFF2)  returns 0x0000000B (0000ms, 7090ms total)
T1960 4810:584 JLINK_Go() -- CPU_ReadMem(4 bytes @ 0xE0001000) (0002ms, 7092ms total)
T1960 4810:586 JLINK_IsHalted()  returns FALSE (0000ms, 7092ms total)
T1960 4810:591 JLINK_IsHalted()  returns FALSE (0000ms, 7092ms total)
T1960 4810:593 JLINK_IsHalted()  returns FALSE (0000ms, 7092ms total)
T1960 4810:595 JLINK_IsHalted()  returns FALSE (0000ms, 7092ms total)
T1960 4810:597 JLINK_IsHalted()  returns FALSE (0000ms, 7092ms total)
T1960 4810:599 JLINK_IsHalted()  returns FALSE (0000ms, 7092ms total)
T1960 4810:601 JLINK_IsHalted()  returns FALSE (0000ms, 7092ms total)
T1960 4810:603 JLINK_IsHalted()  returns FALSE (0000ms, 7092ms total)
T1960 4810:605 JLINK_IsHalted()  returns FALSE (0000ms, 7092ms total)
T1960 4810:607 JLINK_IsHalted()  returns FALSE (0000ms, 7092ms total)
T1960 4810:610 JLINK_IsHalted()  returns FALSE (0000ms, 7092ms total)
T1960 4810:612 JLINK_IsHalted()  returns FALSE (0000ms, 7092ms total)
T1960 4810:614 JLINK_IsHalted()  returns FALSE (0000ms, 7092ms total)
T1960 4810:616 JLINK_IsHalted()  returns FALSE (0000ms, 7092ms total)
T1960 4810:618 JLINK_IsHalted() -- CPU_ReadMem(2 bytes @ 0x20000000)  returns TRUE (0002ms, 7094ms total)
T1960 4810:620 JLINK_ReadReg(R15 (PC))  returns 0x20000000 (0000ms, 7092ms total)
T1960 4810:620 JLINK_ClrBPEx(BPHandle = 0x0000000B)  returns 0x00 (0000ms, 7092ms total)
T1960 4810:620 JLINK_ReadReg(R0)  returns 0x00000000 (0000ms, 7092ms total)
T1960 4810:620 JLINK_WriteMem(0x20000164, 0x029C Bytes, ...) - Data: 00 52 82 81 04 E0 82 89 4D F6 FF 73 1A 40 82 81 ... -- CPU_WriteMem(668 bytes @ 0x20000164)  returns 0x29C (0004ms, 7096ms total)
T1960 4810:624 JLINK_WriteMem(0x20000400, 0x0164 Bytes, ...) - Data: 3F FB 07 F0 F8 FD 23 48 00 68 18 B9 22 A0 0A F0 ... -- CPU_WriteMem(356 bytes @ 0x20000400)  returns 0x164 (0003ms, 7099ms total)
T1960 4810:627 JLINK_WriteReg(R0, 0x08001C00)  returns 0x00 (0000ms, 7099ms total)
T1960 4810:627 JLINK_WriteReg(R1, 0x00000400)  returns 0x00 (0000ms, 7099ms total)
T1960 4810:627 JLINK_WriteReg(R2, 0x20000164)  returns 0x00 (0000ms, 7099ms total)
T1960 4810:627 JLINK_WriteReg(R3, 0x00000000)  returns 0x00 (0000ms, 7099ms total)
T1960 4810:627 JLINK_WriteReg(R4, 0x00000000)  returns 0x00 (0000ms, 7099ms total)
T1960 4810:627 JLINK_WriteReg(R5, 0x00000000)  returns 0x00 (0000ms, 7099ms total)
T1960 4810:627 JLINK_WriteReg(R6, 0x00000000)  returns 0x00 (0000ms, 7099ms total)
T1960 4810:627 JLINK_WriteReg(R7, 0x00000000)  returns 0x00 (0000ms, 7099ms total)
T1960 4810:627 JLINK_WriteReg(R8, 0x00000000)  returns 0x00 (0000ms, 7099ms total)
T1960 4810:627 JLINK_WriteReg(R9, 0x20000160)  returns 0x00 (0000ms, 7099ms total)
T1960 4810:627 JLINK_WriteReg(R10, 0x00000000)  returns 0x00 (0000ms, 7099ms total)
T1960 4810:627 JLINK_WriteReg(R11, 0x00000000)  returns 0x00 (0000ms, 7099ms total)
T1960 4810:627 JLINK_WriteReg(R12, 0x00000000)  returns 0x00 (0000ms, 7099ms total)
T1960 4810:627 JLINK_WriteReg(R13 (SP), 0x20000800)  returns 0x00 (0000ms, 7099ms total)
T1960 4810:627 JLINK_WriteReg(R14, 0x20000001)  returns 0x00 (0000ms, 7099ms total)
T1960 4810:627 JLINK_WriteReg(R15 (PC), 0x200000F4)  returns 0x00 (0000ms, 7099ms total)
T1960 4810:627 JLINK_WriteReg(XPSR, 0x01000000)  returns 0x00 (0000ms, 7099ms total)
T1960 4810:627 JLINK_WriteReg(MSP, 0x20000800)  returns 0x00 (0000ms, 7099ms total)
T1960 4810:627 JLINK_WriteReg(PSP, 0x20000800)  returns 0x00 (0000ms, 7099ms total)
T1960 4810:627 JLINK_WriteReg(CFBP, 0x00000000)  returns 0x00 (0000ms, 7099ms total)
T1960 4810:627 JLINK_SetBPEx(Addr = 0x20000000, Type = 0xFFFFFFF2)  returns 0x0000000C (0000ms, 7099ms total)
T1960 4810:627 JLINK_Go() -- CPU_ReadMem(4 bytes @ 0xE0001000) (0002ms, 7101ms total)
T1960 4810:629 JLINK_IsHalted()  returns FALSE (0000ms, 7101ms total)
T1960 4810:634 JLINK_IsHalted()  returns FALSE (0000ms, 7101ms total)
T1960 4810:636 JLINK_IsHalted()  returns FALSE (0000ms, 7101ms total)
T1960 4810:641 JLINK_IsHalted()  returns FALSE (0000ms, 7101ms total)
T1960 4810:643 JLINK_IsHalted()  returns FALSE (0000ms, 7101ms total)
T1960 4810:645 JLINK_IsHalted()  returns FALSE (0000ms, 7101ms total)
T1960 4810:647 JLINK_IsHalted()  returns FALSE (0000ms, 7101ms total)
T1960 4810:649 JLINK_IsHalted()  returns FALSE (0000ms, 7101ms total)
T1960 4810:651 JLINK_IsHalted()  returns FALSE (0000ms, 7101ms total)
T1960 4810:653 JLINK_IsHalted()  returns FALSE (0000ms, 7101ms total)
T1960 4810:656 JLINK_IsHalted()  returns FALSE (0000ms, 7101ms total)
T1960 4810:658 JLINK_IsHalted()  returns FALSE (0000ms, 7101ms total)
T1960 4810:660 JLINK_IsHalted() -- CPU_ReadMem(2 bytes @ 0x20000000)  returns TRUE (0002ms, 7103ms total)
T1960 4810:662 JLINK_ReadReg(R15 (PC))  returns 0x20000000 (0000ms, 7101ms total)
T1960 4810:662 JLINK_ClrBPEx(BPHandle = 0x0000000C)  returns 0x00 (0000ms, 7101ms total)
T1960 4810:662 JLINK_ReadReg(R0)  returns 0x00000000 (0000ms, 7101ms total)
T1960 4810:662 JLINK_WriteMem(0x20000164, 0x029C Bytes, ...) - Data: D7 FE 01 28 07 D1 62 48 FF F7 68 FE C4 B2 21 46 ... -- CPU_WriteMem(668 bytes @ 0x20000164)  returns 0x29C (0005ms, 7106ms total)
T1960 4810:667 JLINK_WriteMem(0x20000400, 0x0164 Bytes, ...) - Data: 0C 00 0C 20 AD F8 0A 00 69 46 2B 48 FF F7 1B FC ... -- CPU_WriteMem(356 bytes @ 0x20000400)  returns 0x164 (0002ms, 7108ms total)
T1960 4810:669 JLINK_WriteReg(R0, 0x08002000)  returns 0x00 (0000ms, 7108ms total)
T1960 4810:669 JLINK_WriteReg(R1, 0x00000400)  returns 0x00 (0000ms, 7108ms total)
T1960 4810:669 JLINK_WriteReg(R2, 0x20000164)  returns 0x00 (0000ms, 7108ms total)
T1960 4810:669 JLINK_WriteReg(R3, 0x00000000)  returns 0x00 (0000ms, 7108ms total)
T1960 4810:669 JLINK_WriteReg(R4, 0x00000000)  returns 0x00 (0000ms, 7108ms total)
T1960 4810:669 JLINK_WriteReg(R5, 0x00000000)  returns 0x00 (0000ms, 7108ms total)
T1960 4810:669 JLINK_WriteReg(R6, 0x00000000)  returns 0x00 (0000ms, 7108ms total)
T1960 4810:669 JLINK_WriteReg(R7, 0x00000000)  returns 0x00 (0000ms, 7108ms total)
T1960 4810:669 JLINK_WriteReg(R8, 0x00000000)  returns 0x00 (0000ms, 7108ms total)
T1960 4810:669 JLINK_WriteReg(R9, 0x20000160)  returns 0x00 (0000ms, 7108ms total)
T1960 4810:669 JLINK_WriteReg(R10, 0x00000000)  returns 0x00 (0000ms, 7108ms total)
T1960 4810:669 JLINK_WriteReg(R11, 0x00000000)  returns 0x00 (0000ms, 7108ms total)
T1960 4810:669 JLINK_WriteReg(R12, 0x00000000)  returns 0x00 (0000ms, 7108ms total)
T1960 4810:669 JLINK_WriteReg(R13 (SP), 0x20000800)  returns 0x00 (0000ms, 7108ms total)
T1960 4810:669 JLINK_WriteReg(R14, 0x20000001)  returns 0x00 (0000ms, 7108ms total)
T1960 4810:669 JLINK_WriteReg(R15 (PC), 0x200000F4)  returns 0x00 (0000ms, 7108ms total)
T1960 4810:669 JLINK_WriteReg(XPSR, 0x01000000)  returns 0x00 (0000ms, 7108ms total)
T1960 4810:669 JLINK_WriteReg(MSP, 0x20000800)  returns 0x00 (0000ms, 7108ms total)
T1960 4810:669 JLINK_WriteReg(PSP, 0x20000800)  returns 0x00 (0000ms, 7108ms total)
T1960 4810:669 JLINK_WriteReg(CFBP, 0x00000000)  returns 0x00 (0000ms, 7108ms total)
T1960 4810:669 JLINK_SetBPEx(Addr = 0x20000000, Type = 0xFFFFFFF2)  returns 0x0000000D (0000ms, 7108ms total)
T1960 4810:669 JLINK_Go() -- CPU_ReadMem(4 bytes @ 0xE0001000) (0002ms, 7110ms total)
T1960 4810:671 JLINK_IsHalted()  returns FALSE (0000ms, 7110ms total)
T1960 4810:675 JLINK_IsHalted()  returns FALSE (0000ms, 7110ms total)
T1960 4810:677 JLINK_IsHalted()  returns FALSE (0000ms, 7110ms total)
T1960 4810:679 JLINK_IsHalted()  returns FALSE (0000ms, 7110ms total)
T1960 4810:681 JLINK_IsHalted()  returns FALSE (0000ms, 7110ms total)
T1960 4810:683 JLINK_IsHalted()  returns FALSE (0000ms, 7110ms total)
T1960 4810:688 JLINK_IsHalted()  returns FALSE (0000ms, 7110ms total)
T1960 4810:690 JLINK_IsHalted()  returns FALSE (0000ms, 7110ms total)
T1960 4810:692 JLINK_IsHalted()  returns FALSE (0000ms, 7110ms total)
T1960 4810:694 JLINK_IsHalted()  returns FALSE (0000ms, 7110ms total)
T1960 4810:696 JLINK_IsHalted()  returns FALSE (0000ms, 7110ms total)
T1960 4810:708 JLINK_IsHalted() -- CPU_ReadMem(2 bytes @ 0x20000000)  returns TRUE (0002ms, 7112ms total)
T1960 4810:710 JLINK_ReadReg(R15 (PC))  returns 0x20000000 (0000ms, 7110ms total)
T1960 4810:710 JLINK_ClrBPEx(BPHandle = 0x0000000D)  returns 0x00 (0000ms, 7110ms total)
T1960 4810:710 JLINK_ReadReg(R0)  returns 0x00000000 (0000ms, 7110ms total)
T1960 4810:711 JLINK_WriteMem(0x20000164, 0x029C Bytes, ...) - Data: 0B F0 5C FF 00 BF 00 2D F7 D1 25 68 00 20 60 60 ... -- CPU_WriteMem(668 bytes @ 0x20000164)  returns 0x29C (0004ms, 7114ms total)
T1960 4810:715 JLINK_WriteMem(0x20000400, 0x0164 Bytes, ...) - Data: C9 FF 40 21 E3 48 FE F7 5A F8 0A 20 FF F7 C2 FF ... -- CPU_WriteMem(356 bytes @ 0x20000400)  returns 0x164 (0002ms, 7116ms total)
